sample,Vin,Vout,R1,phase,freq,type,length,Z,Re(Z),Im(Z),state
1,5,0.0059,12280,1.8088,20,doc,1cm,14.51,14.51,-0.46,0_0
1,5,1.3529,12280,2.4825,25.1188643,doc,1cm,4555.29,4550.95,-270.24,0_0
1,5,1.921,12280,2.5945,39.8107171,doc,1cm,7661.54,7645.65,-562.03,0_0
1,5,1.8952,12280,4.2567,63.0957344,doc,1cm,7495.83,7455.39,-891.16,0_0
1,5,1.8428,12280,5.2532,100,doc,1cm,7167.61,7112.37,-1031.28,0_0
1,5,1.7842,12280,6.7005,158.489319,doc,1cm,6813.23,6733.85,-1221.63,0_0
1,5,1.708,12280,8.407,251.188643,doc,1cm,6371.28,6265.14,-1391.24,0_0
1,5,1.6193,12280,10.2495,398.107171,doc,1cm,5881.92,5751.83,-1513.68,0_0
1,5,1.5181,12280,12.0444,630.957344,doc,1cm,5354.05,5210.37,-1561.3,0_0
1,5,1.4128,12280,13.6083,1000,doc,1cm,4836.41,4691.75,-1538.67,0_0
1,5,1.2975,12280,14.8723,1584.89319,doc,1cm,4303.39,4171.08,-1445.76,0_0
1,5,1.1916,12280,15.6421,2511.88643,doc,1cm,3842.26,3728.74,-1319.96,0_0
1,5,1.1,12280,16.1065,3981.07171,doc,1cm,3463.59,3367.93,-1197.89,0_0
1,5,0.9775,12280,16.4322,6309.57344,doc,1cm,2984.14,2912.23,-1024.02,0_0
1,5,0.9429,12280,17.1811,10000,doc,1cm,2853.96,2782.78,-1013.07,0_0
1,5,0.879,12280,18.6502,15848.9319,doc,1cm,2619.3,2549.94,-989.4,0_0
1,5,0.82,12280,21.5515,25118.8643,doc,1cm,2409.0,2332.41,-1024.88,0_0
1,5,0.7588,12280,26.6242,39810.7171,doc,1cm,2197.03,2102.89,-1111.03,0_0
1,5,0.6831,12280,34.5219,63095.7344,doc,1cm,1943.17,1825.23,-1198.16,0_0
1,5,0.5797,12280,45.4316,100000,doc,1cm,1610.46,1479.38,-1192.28,0_0
1,5,0.4513,12280,57.4698,158489.319,doc,1cm,1218.36,1106.58,-1025.71,0_0
1,5,0.383,12280,63.8837,200000,doc,1cm,1018.68,925.39,-900.02,0_0
1,5,1.9605,12280,1.6258,20,ngang,1cm,7920.69,7913.93,-369.36,0_0
1,5,1.952,12280,1.9601,25.1188643,ngang,1cm,7864.36,7854.7,-440.71,0_0
1,5,1.9294,12280,2.344,39.8107171,ngang,1cm,7716.09,7702.9,-513.0,0_0
1,5,1.9098,12280,4.0225,63.0957344,ngang,1cm,7589.26,7552.05,-857.17,0_0
1,5,1.8631,12280,4.5096,100,ngang,1cm,7293.46,7250.95,-908.72,0_0
1,5,1.798,12280,6.4735,158.489319,ngang,1cm,6895.52,6819.25,-1200.55,0_0
1,5,1.7286,12280,8.2471,251.188643,ngang,1cm,6488.72,6382.09,-1399.2,0_0
1,5,1.6379,12280,10.0755,398.107171,ngang,1cm,5982.4,5851.59,-1522.44,0_0
1,5,1.5334,12280,11.8221,630.957344,ngang,1cm,5431.88,5288.69,-1562.8,0_0
1,5,1.4218,12280,13.2615,1000,ngang,1cm,4879.47,4739.07,-1519.11,0_0
1,5,1.3117,12280,14.3355,1584.89319,ngang,1cm,4367.24,4239.88,-1423.16,0_0
1,5,1.2095,12280,14.934,2511.88643,ngang,1cm,3918.39,3810.01,-1295.18,0_0
1,5,1.114,12280,15.1864,3981.07171,ngang,1cm,3520.31,3431.85,-1156.74,0_0
1,5,1.0346,12280,15.4344,6309.57344,ngang,1cm,3203.94,3129.63,-1050.23,0_0
1,5,0.9676,12280,16.0112,10000,ngang,1cm,2946.66,2880.14,-985.05,0_0
1,5,0.9094,12280,17.4462,15848.9319,ngang,1cm,2730.02,2663.39,-976.05,0_0
1,5,0.8543,12280,20.3376,25118.8643,ngang,1cm,2530.53,2454.41,-1028.84,0_0
1,5,0.7948,12280,25.4179,39810.7171,ngang,1cm,2320.97,2224.12,-1135.1,0_0
1,5,0.7207,12280,33.3243,63095.7344,ngang,1cm,2068.14,1942.33,-1246.86,0_0
1,5,0.6148,12280,44.2367,100000,ngang,1cm,1721.64,1578.38,-1255.62,0_0
1,5,0.4821,12280,56.4016,158489.319,ngang,1cm,1310.38,1185.15,-1092.67,0_0
1,5,0.4102,12280,62.8172,200000,ngang,1cm,1097.49,992.32,-961.8,0_0
1,5,1.03,12280,35.7194,20,doc,1cm,3185.99,2836.99,-2086.15,1_0
1,5,0.2734,12280,38.068,25.1188643,doc,1cm,710.31,692.24,-451.55,1_0
1,5,0.1851,12280,42.6501,39.8107171,doc,1cm,472.08,462.28,-325.27,1_0
1,5,0.6372,12280,46.6469,63.0957344,doc,1cm,1793.53,1622.99,-1352.65,1_0
1,5,0.5095,12280,48.6737,100,doc,1cm,1393.31,1283.03,-1072.96,1_0
1,5,0.3925,12280,51.3719,158.489319,doc,1cm,1046.1,978.02,-829.24,1_0
1,5,0.2981,12280,52.8952,251.188643,doc,1cm,778.55,738.92,-626.76,1_0
1,5,0.2245,12280,53.3313,398.107171,doc,1cm,577.29,555.2,-466.32,1_0
1,5,0.1679,12280,52.7021,630.957344,doc,1cm,426.69,414.88,-341.55,1_0
1,5,0.1266,12280,50.8659,1000,doc,1cm,319.01,312.82,-248.98,1_0
1,5,0.096,12280,47.9235,1584.89319,doc,1cm,240.39,237.24,-179.56,1_0
1,5,0.0748,12280,43.8586,2511.88643,doc,1cm,186.5,184.89,-130.07,1_0
1,5,0.0596,12280,38.9937,3981.07171,doc,1cm,148.14,147.33,-93.83,1_0
1,5,0.0496,12280,33.8992,6309.57344,doc,1cm,123.04,122.61,-69.07,1_0
1,5,0.0426,12280,28.9573,10000,doc,1cm,105.52,105.29,-51.42,1_0
1,5,0.0375,12280,24.8091,15848.9319,doc,1cm,92.8,92.66,-39.18,1_0
1,5,0.0338,12280,21.5964,25118.8643,doc,1cm,83.58,83.5,-30.94,1_0
1,5,0.0309,12280,18.9999,39810.7171,doc,1cm,76.36,76.31,-25.0,1_0
1,5,0.0259,12280,16.9299,63095.7344,doc,1cm,63.94,63.91,-18.71,1_0
1,5,0.0242,12280,15.6569,100000,doc,1cm,59.72,59.7,-16.19,1_0
1,5,0.0227,12280,15.1043,158489.319,doc,1cm,56.01,55.99,-14.66,1_0
1,5,0.022,12280,15.2247,200000,doc,1cm,54.27,54.25,-14.31,1_0
1,5,0.9802,12280,37.0632,20,ngang,1cm,2994.39,2667.28,-1999.7,1_0
1,5,0.9262,12280,39.1744,25.1188643,ngang,1cm,2791.92,2480.51,-1923.31,1_0
1,5,0.7589,12280,43.1034,39.8107171,ngang,1cm,2197.38,1972.55,-1589.22,1_0
1,5,0.6077,12280,47.4818,63.0957344,ngang,1cm,1699.01,1541.41,-1293.46,1_0
1,5,0.4722,12280,50.1509,100,ngang,1cm,1280.67,1182.65,-1002.78,1_0
1,5,0.369,12280,52.3954,158.489319,ngang,1cm,978.48,916.85,-784.35,1_0
1,5,0.2791,12280,53.7159,251.188643,ngang,1cm,725.99,690.59,-589.67,1_0
1,5,0.2088,12280,54.0913,398.107171,ngang,1cm,535.16,515.69,-435.95,1_0
1,5,0.1561,12280,53.402,630.957344,ngang,1cm,395.74,385.33,-319.37,1_0
1,5,0.117,12280,51.4741,1000,ngang,1cm,294.24,288.85,-231.42,1_0
1,5,0.0822,12280,48.3378,1584.89319,ngang,1cm,205.26,202.92,-154.15,1_0
1,5,0.0685,12280,43.9464,2511.88643,ngang,1cm,170.57,169.22,-119.08,1_0
1,5,0.0549,12280,38.6727,3981.07171,ngang,1cm,136.33,135.65,-85.71,1_0
1,5,0.0458,12280,33.2949,6309.57344,ngang,1cm,113.52,113.17,-62.7,1_0
1,5,0.0396,12280,28.3285,10000,ngang,1cm,98.03,97.84,-46.8,1_0
1,5,0.0351,12280,24.0443,15848.9319,ngang,1cm,86.82,86.71,-35.58,1_0
1,5,0.0318,12280,21.0035,25118.8643,ngang,1cm,78.6,78.53,-28.33,1_0
1,5,0.0291,12280,18.622,39810.7171,ngang,1cm,71.89,71.84,-23.08,1_0
1,5,0.027,12280,16.6676,63095.7344,ngang,1cm,66.67,66.64,-19.22,1_0
1,5,0.0229,12280,15.3488,100000,ngang,1cm,56.5,56.48,-15.02,1_0
1,5,0.0236,12280,14.7433,158489.319,ngang,1cm,58.24,58.22,-14.89,1_0
1,5,0.0228,12280,14.6966,200000,ngang,1cm,56.25,56.24,-14.33,1_0
1,5,0.6779,12280,48.0244,20,doc,1cm,1926.06,1719.2,-1478.75,2_0
1,5,0.5959,12280,49.3756,25.1188643,doc,1cm,1661.55,1500.5,-1293.13,2_0
1,5,0.1465,12280,52.1541,39.8107171,doc,1cm,370.66,361.92,-294.46,2_0
1,5,0.354,12280,54.117,63.0957344,doc,1cm,935.67,876.07,-764.0,2_0
1,5,0.2672,12280,54.7758,100,doc,1cm,693.29,659.88,-569.57,2_0
1,5,0.1997,12280,55.1419,158.489319,doc,1cm,510.87,492.5,-421.01,2_0
1,5,0.1501,12280,55.3001,251.188643,doc,1cm,380.05,369.83,-313.51,2_0
1,5,0.1123,12280,54.9784,398.107171,doc,1cm,282.15,276.57,-231.73,2_0
1,5,0.0837,12280,53.8323,630.957344,doc,1cm,209.07,206.11,-169.25,2_0
1,5,0.0611,12280,51.5899,1000,doc,1cm,151.92,150.47,-119.38,2_0
1,5,0.0478,12280,48.3571,1584.89319,doc,1cm,118.53,117.75,-88.85,2_0
1,5,0.0373,12280,43.9722,2511.88643,doc,1cm,92.3,91.9,-64.29,2_0
1,5,0.0301,12280,39.2546,3981.07171,doc,1cm,74.37,74.16,-47.22,2_0
1,5,0.0251,12280,34.608,6309.57344,doc,1cm,61.96,61.84,-35.3,2_0
1,5,0.0215,12280,30.8576,10000,doc,1cm,53.03,52.96,-27.28,2_0
1,5,0.0187,12280,27.8691,15848.9319,doc,1cm,46.1,46.06,-21.61,2_0
1,5,0.0165,12280,25.8289,25118.8643,doc,1cm,40.66,40.63,-17.76,2_0
1,5,0.0146,12280,24.2494,39810.7171,doc,1cm,35.96,35.94,-14.81,2_0
1,5,0.0129,12280,22.7729,63095.7344,doc,1cm,31.76,31.75,-12.32,2_0
1,5,0.0116,12280,21.0128,100000,doc,1cm,28.56,28.55,-10.26,2_0
1,5,0.0106,12280,19.5572,158489.319,doc,1cm,26.09,26.08,-8.75,2_0
1,5,0.0101,12280,18.66,200000,doc,1cm,24.86,24.85,-7.97,2_0
1,5,0.6155,12280,47.875,20,ngang,1cm,1723.88,1559.29,-1319.01,2_0
1,5,0.5424,12280,48.7784,25.1188643,ngang,1cm,1494.23,1366.81,-1153.3,2_0
1,5,0.4193,12280,50.7699,39.8107171,ngang,1cm,1124.06,1047.01,-885.38,2_0
1,5,0.3158,12280,52.2763,63.0957344,ngang,1cm,827.89,783.99,-662.01,2_0
1,5,0.2523,12280,52.5457,100,ngang,1cm,652.58,625.07,-522.65,2_0
1,5,0.1927,12280,53.2765,158.489319,ngang,1cm,492.24,476.21,-397.05,2_0
1,5,0.1465,12280,53.8798,251.188643,ngang,1cm,370.66,361.39,-300.77,2_0
1,5,0.1099,12280,53.9626,398.107171,ngang,1cm,275.98,270.82,-223.95,2_0
1,5,0.0822,12280,53.0139,630.957344,ngang,1cm,205.26,202.49,-164.47,2_0
1,5,0.0617,12280,50.868,1000,ngang,1cm,153.43,151.99,-119.39,2_0
1,5,0.0471,12280,47.5947,1584.89319,ngang,1cm,116.78,116.04,-86.51,2_0
1,5,0.0371,12280,43.4958,2511.88643,ngang,1cm,91.8,91.41,-63.4,2_0
1,5,0.03,12280,39.1422,3981.07171,ngang,1cm,74.12,73.92,-46.95,2_0
1,5,0.024,12280,35.0418,6309.57344,ngang,1cm,59.23,59.12,-34.11,2_0
1,5,0.0204,12280,31.6495,10000,ngang,1cm,50.31,50.24,-26.47,2_0
1,5,0.0177,12280,28.9834,15848.9319,ngang,1cm,43.63,43.59,-21.2,2_0
1,5,0.016,12280,26.5789,25118.8643,ngang,1cm,39.42,39.39,-17.68,2_0
1,5,0.0141,12280,24.428,39810.7171,ngang,1cm,34.73,34.71,-14.39,2_0
1,5,0.0126,12280,22.146,63095.7344,ngang,1cm,31.02,31.01,-11.72,2_0
1,5,0.0113,12280,20.1564,100000,ngang,1cm,27.82,27.81,-9.6,2_0
1,5,0.0104,12280,18.4289,158489.319,ngang,1cm,25.6,25.59,-8.11,2_0
1,5,0.01,12280,17.8098,200000,ngang,1cm,24.61,24.6,-7.54,2_0
2,5,0.2247,12280,2.0872,20,doc,1cm,577.83,577.79,-22.03,0_0
2,5,1.0968,12280,2.421,25.1188643,doc,1cm,3450.68,3448.47,-186.6,0_0
2,5,0.5735,12280,3.8881,39.8107171,doc,1cm,1591.0,1589.93,-121.78,0_0
2,5,1.8816,12280,4.7647,63.0957344,doc,1cm,7409.58,7360.36,-980.28,0_0
2,5,1.8243,12280,5.9378,100,doc,1cm,7054.32,6986.5,-1137.93,0_0
2,5,1.7566,12280,7.5586,158.489319,doc,1cm,6650.75,6555.61,-1329.36,0_0
2,5,0.074,12280,9.1613,251.188643,doc,1cm,184.47,184.4,-29.8,0_0
2,5,1.5752,12280,11.4132,398.107171,doc,1cm,5648.05,5501.89,-1589.5,0_0
2,5,1.464,12280,13.2929,630.957344,doc,1cm,5084.25,4929.55,-1602.74,0_0
2,5,1.3545,12280,14.8908,1000,doc,1cm,4562.68,4411.62,-1554.94,0_0
2,5,1.2402,12280,16.0526,1584.89319,doc,1cm,4050.66,3916.61,-1440.29,0_0
2,5,1.1332,12280,16.7204,2511.88643,doc,1cm,3598.76,3486.97,-1297.23,0_0
2,5,1.0349,12280,17.1051,3981.07171,doc,1cm,3205.11,3114.37,-1155.12,0_0
2,5,0.9513,12280,17.4053,6309.57344,doc,1cm,2885.36,2810.63,-1038.3,0_0
2,5,0.8805,12280,18.0271,10000,doc,1cm,2624.72,2559.48,-961.39,0_0
2,5,0.8193,12280,19.5036,15848.9319,doc,1cm,2406.54,2343.45,-935.75,0_0
2,5,0.7631,12280,22.4598,25118.8643,doc,1cm,2211.73,2142.58,-965.99,0_0
2,5,0.7033,12280,27.5615,39810.7171,doc,1cm,2010.04,1926.66,-1037.43,0_0
2,5,0.6297,12280,35.5825,63095.7344,doc,1cm,1769.38,1666.66,-1109.59,0_0
2,5,0.5298,12280,46.5945,100000,doc,1cm,1455.4,1343.78,-1092.1,0_0
2,5,0.4104,12280,58.8431,158489.319,doc,1cm,1098.07,1003.52,-935.72,0_0
2,5,0.3467,12280,65.3389,200000,doc,1cm,914.94,836.67,-817.19,0_0
2,5,0.2247,12280,1.6381,20,ngang,1cm,577.83,577.81,-17.29,0_0
2,5,1.9357,12280,2.3655,25.1188643,ngang,1cm,7757.2,7743.6,-521.51,0_0
2,5,1.917,12280,3.2637,39.8107171,ngang,1cm,7635.67,7610.76,-702.71,0_0
2,5,1.887,12280,4.5539,63.0957344,ngang,1cm,7443.74,7398.25,-943.46,0_0
2,5,1.832,12280,5.1108,100,ngang,1cm,7101.31,7050.14,-991.23,0_0
2,5,1.6192,12280,7.0484,158.489319,ngang,1cm,5881.38,5819.06,-1056.03,0_0
2,5,1.6863,12280,8.9355,251.188643,ngang,1cm,6249.14,6134.76,-1437.78,0_0
2,5,1.5953,12280,10.854,398.107171,ngang,1cm,5753.89,5615.59,-1552.95,0_0
2,5,1.4861,12280,12.6954,630.957344,ngang,1cm,5193.46,5044.96,-1577.64,0_0
2,5,1.3749,12280,14.3223,1000,ngang,1cm,4657.46,4510.72,-1539.08,0_0
2,5,1.263,12280,15.505,1584.89319,ngang,1cm,4150.29,4017.98,-1437.13,0_0
2,5,1.1557,12280,16.2483,2511.88643,ngang,1cm,3691.7,3579.82,-1302.78,0_0
2,5,1.0597,12280,16.6451,3981.07171,ngang,1cm,3302.57,3210.69,-1167.03,0_0
2,5,0.9831,12280,16.996,6309.57344,ngang,1cm,3005.42,2927.47,-1065.16,0_0
2,5,0.9127,12280,17.6193,10000,ngang,1cm,2742.14,2673.57,-989.99,0_0
2,5,0.8474,12280,19.0685,15848.9319,ngang,1cm,2505.92,2440.07,-959.86,0_0
2,5,0.7894,12280,21.9783,25118.8643,ngang,1cm,2302.24,2230.02,-991.09,0_0
2,5,0.7287,12280,27.0803,39810.7171,ngang,1cm,2095.01,2007.05,-1069.61,0_0
2,5,0.6547,12280,35.0543,63095.7344,ngang,1cm,1850.21,1740.61,-1150.43,0_0
2,5,0.5519,12280,45.969,100000,ngang,1cm,1523.65,1404.05,-1134.83,0_0
2,5,0.429,12280,58.1071,158489.319,ngang,1cm,1152.51,1050.57,-975.85,0_0
2,5,0.3631,12280,64.4633,200000,ngang,1cm,961.61,877.13,-853.6,0_0
2,5,0.962,12280,37.0854,20,doc,1cm,2925.55,2613.45,-1951.52,1_0
2,5,0.9183,12280,39.307,25.1188643,doc,1cm,2762.75,2456.22,-1906.18,1_0
2,5,0.7492,12280,43.1926,39.8107171,doc,1cm,2164.34,1945.56,-1566.5,1_0
2,5,0.5994,12280,47.4751,63.0957344,doc,1cm,1672.64,1519.97,-1272.93,1_0
2,5,0.4679,12280,49.5572,100,doc,1cm,1267.8,1173.71,-985.6,1_0
2,5,0.3637,12280,51.9923,158.489319,doc,1cm,963.32,904.39,-768.6,1_0
2,5,0.2737,12280,53.0861,251.188643,doc,1cm,711.13,677.86,-573.44,1_0
2,5,0.2065,12280,53.1965,398.107171,doc,1cm,529.01,510.54,-426.46,1_0
2,5,0.1551,12280,52.1013,630.957344,doc,1cm,393.12,383.3,-312.18,1_0
2,5,0.1168,12280,49.8066,1000,doc,1cm,293.72,288.67,-225.81,1_0
2,5,0.0896,12280,46.1236,1584.89319,doc,1cm,224.07,221.52,-162.61,1_0
2,5,0.0705,12280,41.4227,2511.88643,doc,1cm,175.62,174.34,-117.01,1_0
2,5,0.0575,12280,35.9719,3981.07171,doc,1cm,142.86,142.22,-84.51,1_0
2,5,0.0487,12280,30.7109,6309.57344,doc,1cm,120.78,120.44,-62.12,1_0
2,5,0.0427,12280,26.1685,10000,doc,1cm,105.77,105.58,-46.97,1_0
2,5,0.0384,12280,22.5287,15848.9319,doc,1cm,95.04,94.93,-36.65,1_0
2,5,0.0349,12280,19.7722,25118.8643,doc,1cm,86.32,86.24,-29.38,1_0
2,5,0.0321,12280,17.8715,39810.7171,doc,1cm,79.35,79.3,-24.49,1_0
2,5,0.0297,12280,16.5401,63095.7344,doc,1cm,73.38,73.34,-21.0,1_0
2,5,0.0277,12280,15.4278,100000,doc,1cm,68.41,68.38,-18.29,1_0
2,5,0.026,12280,15.2264,158489.319,doc,1cm,64.19,64.17,-16.94,1_0
2,5,0.0251,12280,15.3817,200000,doc,1cm,61.96,61.93,-16.51,1_0
2,5,0.9712,12280,36.8438,20,ngang,1cm,2960.27,2644.06,-1967.82,1_0
2,5,0.2914,12280,39.3499,25.1188643,ngang,1cm,759.97,737.92,-496.88,1_0
2,5,0.7613,12280,43.6518,39.8107171,ngang,1cm,2205.57,1974.1,-1607.58,1_0
2,5,0.6069,12280,48.0922,63.0957344,ngang,1cm,1696.46,1535.87,-1301.1,1_0
2,5,0.4714,12280,50.7772,100,ngang,1cm,1278.27,1178.51,-1008.15,1_0
2,5,0.3593,12280,52.6652,158.489319,ngang,1cm,950.76,892.06,-764.3,1_0
2,5,0.2708,12280,53.5971,251.188643,ngang,1cm,703.17,670.09,-570.29,1_0
2,5,0.2053,12280,53.7936,398.107171,ngang,1cm,525.81,507.19,-426.83,1_0
2,5,0.1532,12280,52.3562,630.957344,ngang,1cm,388.15,378.49,-309.21,1_0
2,5,0.1153,12280,49.5895,1000,ngang,1cm,289.86,284.98,-222.14,1_0
2,5,0.0884,12280,45.4595,1584.89319,ngang,1cm,221.02,218.6,-158.63,1_0
2,5,0.0702,12280,40.3332,2511.88643,ngang,1cm,174.87,173.66,-114.01,1_0
2,5,0.0578,12280,34.655,3981.07171,ngang,1cm,143.62,143.01,-82.28,1_0
2,5,0.0495,12280,29.2121,6309.57344,ngang,1cm,122.79,122.47,-60.37,1_0
2,5,0.0438,12280,24.5835,10000,ngang,1cm,108.52,108.35,-45.47,1_0
2,5,0.0397,12280,20.9149,15848.9319,ngang,1cm,98.28,98.18,-35.33,1_0
2,5,0.0365,12280,18.3081,25118.8643,ngang,1cm,90.3,90.23,-28.55,1_0
2,5,0.0338,12280,16.4345,39810.7171,ngang,1cm,83.58,83.53,-23.79,1_0
2,5,0.03,12280,15.0218,63095.7344,ngang,1cm,74.12,74.09,-19.32,1_0
2,5,0.0282,12280,14.2046,100000,ngang,1cm,69.65,69.63,-17.18,1_0
2,5,0.0266,12280,14.2445,158489.319,ngang,1cm,65.68,65.66,-16.24,1_0
2,5,0.0259,12280,14.5464,200000,ngang,1cm,63.94,63.92,-16.14,1_0
2,5,0.5763,12280,48.1947,20,doc,1cm,1599.78,1456.58,-1227.35,2_0
2,5,0.4857,12280,49.9044,25.1188643,doc,1cm,1321.22,1217.75,-1031.9,2_0
2,5,0.3821,12280,50.5969,39.8107171,doc,1cm,1016.09,953.55,-797.88,2_0
2,5,0.3002,12280,51.6456,63.0957344,doc,1cm,784.39,745.82,-622.3,2_0
2,5,0.2321,12280,52.2321,100,doc,1cm,597.79,574.96,-476.69,2_0
2,5,0.1786,12280,52.9627,158.489319,doc,1cm,454.89,441.34,-365.4,2_0
2,5,0.1357,12280,53.5719,251.188643,doc,1cm,342.58,334.73,-276.88,2_0
2,5,0.102,12280,53.573,398.107171,doc,1cm,255.73,251.35,-206.48,2_0
2,5,0.0771,12280,52.7055,630.957344,doc,1cm,192.32,189.92,-153.47,2_0
2,5,0.0583,12280,50.6436,1000,doc,1cm,144.87,143.6,-112.36,2_0
2,5,0.0447,12280,47.5639,1584.89319,doc,1cm,110.77,110.11,-82.01,2_0
2,5,0.0349,12280,43.5635,2511.88643,doc,1cm,86.32,85.97,-59.67,2_0
2,5,0.0281,12280,39.2766,3981.07171,doc,1cm,69.4,69.22,-44.07,2_0
2,5,0.0234,12280,34.8563,6309.57344,doc,1cm,57.74,57.64,-33.1,2_0
2,5,0.0199,12280,30.9544,10000,doc,1cm,49.07,49.01,-25.31,2_0
2,5,0.0172,12280,27.7028,15848.9319,doc,1cm,42.39,42.35,-19.76,2_0
2,5,0.0152,12280,24.8871,25118.8643,doc,1cm,37.45,37.42,-15.8,2_0
2,5,0.0135,12280,22.5653,39810.7171,doc,1cm,33.25,33.23,-12.79,2_0
2,5,0.0123,12280,20.4678,63095.7344,doc,1cm,30.28,30.27,-10.61,2_0
2,5,0.0112,12280,18.757,100000,doc,1cm,27.57,27.56,-8.88,2_0
2,5,0.0103,12280,17.1937,158489.319,doc,1cm,25.35,25.34,-7.51,2_0
2,5,0.01,12280,16.7758,200000,doc,1cm,24.61,24.6,-7.12,2_0
2,5,0.5598,12280,47.4199,20,ngang,1cm,1548.21,1417.84,-1175.76,2_0
2,5,0.0587,12280,47.7741,25.1188643,ngang,1cm,145.88,144.72,-108.45,2_0
2,5,0.0868,12280,49.0664,39.8107171,ngang,1cm,216.95,214.27,-164.75,2_0
2,5,0.3022,12280,50.1828,63.0957344,ngang,1cm,789.95,752.78,-615.47,2_0
2,5,0.2323,12280,51.1503,100,ngang,1cm,598.33,576.3,-470.75,2_0
2,5,0.1793,12280,52.1748,158.489319,ngang,1cm,456.74,443.45,-363.35,2_0
2,5,0.1393,12280,52.9197,251.188643,ngang,1cm,351.93,343.83,-282.2,2_0
2,5,0.1047,12280,53.0052,398.107171,ngang,1cm,262.64,258.12,-210.59,2_0
2,5,0.0784,12280,52.1208,630.957344,ngang,1cm,195.62,193.18,-154.93,2_0
2,5,0.0592,12280,50.0493,1000,ngang,1cm,147.14,145.85,-113.16,2_0
2,5,0.0453,12280,46.7379,1584.89319,ngang,1cm,112.27,111.61,-82.03,2_0
2,5,0.0357,12280,42.6907,2511.88643,ngang,1cm,88.31,87.96,-60.08,2_0
2,5,0.0289,12280,38.3097,3981.07171,ngang,1cm,71.39,71.21,-44.4,2_0
2,5,0.0233,12280,33.9965,6309.57344,ngang,1cm,57.49,57.4,-32.25,2_0
2,5,0.02,12280,30.4013,10000,ngang,1cm,49.32,49.26,-25.03,2_0
2,5,0.0174,12280,27.5546,15848.9319,ngang,1cm,42.88,42.85,-19.89,2_0
2,5,0.0154,12280,25.4892,25118.8643,ngang,1cm,37.94,37.92,-16.37,2_0
2,5,0.0136,12280,23.8622,39810.7171,ngang,1cm,33.49,33.48,-13.58,2_0
2,5,0.0127,12280,22.1506,63095.7344,ngang,1cm,31.27,31.26,-11.82,2_0
2,5,0.0115,12280,20.6668,100000,ngang,1cm,28.31,28.3,-10.01,2_0
2,5,0.0104,12280,19.3232,158489.319,ngang,1cm,25.6,25.59,-8.49,2_0
2,5,0.01,12280,18.9327,200000,ngang,1cm,24.61,24.6,-8.0,2_0
3,5,0.6862,12280,2.0764,20,doc,1cm,1953.39,1952.92,-82.01,0_0
3,5,1.941,12280,2.3361,25.1188643,doc,1cm,7791.92,7778.51,-518.25,0_0
3,5,1.1066,12280,3.7411,39.8107171,doc,1cm,3490.28,3484.85,-292.01,0_0
3,5,1.8954,12280,4.4844,63.0957344,doc,1cm,7497.1,7452.23,-938.4,0_0
3,5,1.8399,12280,5.5717,100,doc,1cm,7149.76,7088.05,-1088.87,0_0
3,5,1.7788,12280,7.1453,158.489319,doc,1cm,6781.22,6692.1,-1292.08,0_0
3,5,1.6973,12280,9.0156,251.188643,doc,1cm,6310.85,6191.78,-1468.92,0_0
3,5,1.5995,12280,10.9956,398.107171,doc,1cm,5776.17,5633.08,-1579.81,0_0
3,5,1.4922,12280,12.9045,630.957344,doc,1cm,5223.85,5068.55,-1613.48,0_0
3,5,1.3755,12280,14.4893,1000,doc,1cm,4660.27,4510.01,-1556.65,0_0
3,5,1.2605,12280,15.641,1584.89319,doc,1cm,4139.31,4005.54,-1443.97,0_0
3,5,1.1547,12280,16.3338,2511.88643,doc,1cm,3687.54,3574.81,-1307.27,0_0
3,5,1.0586,12280,16.6822,3981.07171,doc,1cm,3298.22,3206.21,-1167.6,0_0
3,5,0.9756,12280,16.9867,6309.57344,doc,1cm,2976.93,2900.65,-1052.88,0_0
3,5,0.9044,12280,17.6315,10000,doc,1cm,2711.7,2644.67,-977.96,0_0
3,5,0.8423,12280,19.1789,15848.9319,doc,1cm,2487.78,2422.22,-956.97,0_0
3,5,0.7845,12280,22.2142,25118.8643,doc,1cm,2285.29,2212.73,-992.28,0_0
3,5,0.7234,12280,27.4271,39810.7171,doc,1cm,2077.2,1988.7,-1071.03,0_0
3,5,0.6466,12280,35.4628,63095.7344,doc,1cm,1823.92,1715.24,-1143.02,0_0
3,5,0.5438,12280,46.3857,100000,doc,1cm,1498.56,1381.07,-1122.04,0_0
3,5,0.4208,12280,58.4887,158489.319,doc,1cm,1128.46,1029.63,-958.63,0_0
3,5,0.3558,12280,64.775,200000,doc,1cm,940.79,859.26,-837.05,0_0
3,5,2.0028,12280,2.2041,20,ngang,1cm,8205.79,8192.27,-525.61,0_0
3,5,0.0541,12280,2.0827,25.1188643,ngang,1cm,134.32,134.32,-4.93,0_0
