sample,Vin,Vout,R1,phase,freq,type,length,Z,Re(Z),Im(Z),state
1,5,0.463,12280,34.0291,20,doc,1cm,1253.17,1206.62,-744.19,0_0
1,5,1.639,12280,34.8275,25.1188643,doc,1cm,5988.37,4752.68,-4038.26,0_0
1,5,0.8796,12280,33.4412,39.8107171,doc,1cm,2621.47,2414.23,-1614.55,0_0
1,5,1.1916,12280,31.7168,63.0957344,doc,1cm,3842.26,3422.14,-2362.15,0_0
1,5,1.0312,12280,28.8018,100,doc,1cm,3190.67,2951.48,-1791.52,0_0
1,5,0.9124,12280,25.9749,158.489319,doc,1cm,2741.04,2597.65,-1391.71,0_0
1,5,0.8127,12280,23.8861,251.188643,doc,1cm,2383.39,2292.31,-1108.39,0_0
1,5,0.74,12280,21.8567,398.107171,doc,1cm,2133.15,2072.35,-905.55,0_0
1,5,0.6816,12280,20.6811,630.957344,doc,1cm,1938.23,1893.59,-774.32,0_0
1,5,0.6315,12280,20.565,1000,doc,1cm,1775.17,1738.47,-698.96,0_0
1,5,0.5839,12280,21.7232,1584.89319,doc,1cm,1623.67,1589.83,-666.25,0_0
1,5,0.5295,12280,24.1586,2511.88643,doc,1cm,1454.48,1421.45,-650.67,0_0
1,5,0.4712,12280,27.6865,3981.07171,doc,1cm,1277.68,1244.88,-638.62,0_0
1,5,0.4084,12280,31.8284,6309.57344,doc,1cm,1092.24,1061.28,-609.51,0_0
1,5,0.3401,12280,35.8052,10000,doc,1cm,896.25,870.43,-546.43,0_0
1,5,0.2749,12280,38.9013,15848.9319,doc,1cm,714.43,695.39,-462.13,0_0
1,5,0.2182,12280,40.5831,25118.8643,doc,1cm,560.35,547.74,-372.62,0_0
1,5,0.1723,12280,40.6364,39810.7171,doc,1cm,438.27,430.56,-290.44,0_0
1,5,0.1371,12280,39.0198,63095.7344,doc,1cm,346.21,341.77,-221.25,0_0
1,5,0.1112,12280,36.1545,100000,doc,1cm,279.32,276.82,-167.04,0_0
1,5,0.0928,12280,32.6282,158489.319,doc,1cm,232.23,230.81,-126.81,0_0
1,5,0.0855,12280,30.8808,200000,doc,1cm,213.64,212.56,-111.0,0_0
1,5,1.678,12280,38.557,20,doc,1cm,6202.84,4658.08,-4370.34,1_0
1,5,1.4982,12280,37.3797,25.1188643,doc,1cm,5253.84,4199.61,-3640.69,1_0
1,5,1.2472,12280,36.0949,39.8107171,doc,1cm,4081.12,3487.87,-2737.9,1_0
1,5,1.0503,12280,34.0145,63.0957344,doc,1cm,3265.48,2927.97,-2073.61,1_0
1,5,0.8928,12280,30.7277,100,doc,1cm,2669.36,2484.6,-1545.57,1_0
1,5,0.7776,12280,27.2554,158.489319,doc,1cm,2261.49,2156.95,-1169.75,1_0
1,5,0.6921,12280,24.0566,251.188643,doc,1cm,1972.88,1910.92,-904.14,1_0
1,5,0.6277,12280,21.4325,398.107171,doc,1cm,1762.95,1723.77,-720.32,1_0
1,5,0.5784,12280,19.7606,630.957344,doc,1cm,1606.38,1578.84,-603.63,1_0
1,5,0.5341,12280,19.2237,1000,doc,1cm,1468.63,1446.99,-533.42,1_0
1,5,0.4939,12280,19.8964,1584.89319,doc,1cm,1345.97,1326.68,-501.0,1_0
1,5,0.4503,12280,21.5682,2511.88643,doc,1cm,1215.4,1197.13,-483.64,1_0
1,5,0.4053,12280,24.0964,3981.07171,doc,1cm,1083.22,1065.37,-473.34,1_0
1,5,0.3569,12280,27.0697,6309.57344,doc,1cm,943.92,927.08,-454.33,1_0
1,5,0.3069,12280,30.0175,10000,doc,1cm,803.04,788.27,-420.15,1_0
1,5,0.259,12280,32.6018,15848.9319,doc,1cm,670.85,658.86,-374.4,1_0
1,5,0.2149,12280,34.6568,25118.8643,doc,1cm,551.5,542.43,-322.33,1_0
1,5,0.1764,12280,35.9103,39810.7171,doc,1cm,449.08,442.68,-269.15,1_0
1,5,0.1439,12280,36.1194,63095.7344,doc,1cm,363.89,359.65,-218.3,1_0
1,5,0.1183,12280,35.2596,100000,doc,1cm,297.59,294.88,-174.37,1_0
1,5,0.0979,12280,33.6677,158489.319,doc,1cm,245.24,243.57,-137.73,1_0
1,5,0.0897,12280,32.6431,200000,doc,1cm,224.33,223.01,-122.49,1_0
1,5,1.1272,12280,47.4115,20,ngang,1cm,3574.16,2875.16,-2733.26,1_0
1,5,1.0022,12280,47.1987,25.1188643,ngang,1cm,3078.45,2562.9,-2352.15,1_0
1,5,0.7986,12280,46.0431,39.8107171,ngang,1cm,2334.18,2050.18,-1756.58,1_0
1,5,0.6405,12280,43.9766,63.0957344,ngang,1cm,1804.18,1648.25,-1312.77,1_0
1,5,0.5188,12280,40.3959,100,ngang,1cm,1421.69,1339.09,-968.37,1_0
1,5,0.4277,12280,36.3436,158.489319,ngang,1cm,1148.69,1104.65,-715.93,1_0
1,5,0.3621,12280,32.1332,251.188643,ngang,1cm,958.75,934.6,-535.94,1_0
1,5,0.3135,12280,28.2578,398.107171,ngang,1cm,821.46,807.69,-407.99,1_0
1,5,0.28,12280,25.0437,630.957344,ngang,1cm,728.47,719.95,-322.85,1_0
1,5,0.259,12280,22.7724,1000,ngang,1cm,670.85,664.87,-271.42,1_0
1,5,0.2355,12280,21.7496,1584.89319,ngang,1cm,606.98,602.51,-234.3,1_0
1,5,0.2147,12280,21.8365,2511.88643,ngang,1cm,550.96,547.27,-212.7,1_0
1,5,0.1956,12280,22.9053,3981.07171,ngang,1cm,499.95,496.62,-201.16,1_0
1,5,0.1743,12280,24.7019,6309.57344,ngang,1cm,443.54,440.51,-190.74,1_0
1,5,0.1529,12280,26.7934,10000,ngang,1cm,387.37,384.67,-178.87,1_0
1,5,0.1323,12280,28.7405,15848.9319,ngang,1cm,333.76,331.47,-163.72,1_0
1,5,0.1121,12280,30.2116,25118.8643,ngang,1cm,281.63,279.84,-144.05,1_0
1,5,0.0941,12280,30.8816,39810.7171,ngang,1cm,235.54,234.23,-122.54,1_0
1,5,0.0791,12280,30.5507,63095.7344,ngang,1cm,197.39,196.49,-101.49,1_0
1,5,0.0671,12280,29.2778,100000,ngang,1cm,167.04,166.45,-82.51,1_0
1,5,0.0576,12280,27.302,158489.319,ngang,1cm,143.11,142.73,-66.23,1_0
1,5,0.0536,12280,26.1723,200000,ngang,1cm,133.07,132.77,-59.2,1_0
2,5,0.0059,12280,26.7292,20,doc,1cm,14.51,14.5,-6.53,0_0
2,5,1.6315,12280,32.9969,25.1188643,doc,1cm,5947.7,4827.61,-3902.75,0_0
2,5,1.398,12280,31.3051,39.8107171,doc,1cm,4766.09,4119.55,-2971.45,0_0
2,5,1.2164,12280,19.461,63.0957344,doc,1cm,3947.93,3765.07,-1657.7,0_0
2,5,1.0737,12280,26.4755,100,doc,1cm,3358.13,3129.41,-1776.73,0_0
2,5,0.9642,12280,24.2951,158.489319,doc,1cm,2933.84,2787.59,-1420.98,0_0
2,5,0.8725,12280,22.8986,251.188643,doc,1cm,2595.83,2495.06,-1176.09,0_0
2,5,0.7915,12280,22.5436,398.107171,doc,1cm,2309.52,2233.2,-1017.23,0_0
2,5,0.7219,12280,23.1248,630.957344,doc,1cm,2072.17,2008.45,-921.92,0_0
2,5,0.653,12280,24.7453,1000,doc,1cm,1844.68,1787.89,-860.83,0_0
2,5,0.5806,12280,27.2962,1584.89319,doc,1cm,1613.29,1561.54,-810.22,0_0
2,5,0.5034,12280,30.2229,2511.88643,doc,1cm,1374.76,1329.7,-744.29,0_0
2,5,0.426,12280,33.0357,3981.07171,doc,1cm,1143.7,1107.19,-659.85,0_0
2,5,0.3533,12280,35.3875,6309.57344,doc,1cm,933.68,906.23,-564.74,0_0
2,5,0.2904,12280,37.0259,10000,doc,1cm,757.2,737.68,-471.63,0_0
2,5,0.2365,12280,37.9807,15848.9319,doc,1cm,609.68,596.47,-385.32,0_0
2,5,0.1923,12280,38.3534,25118.8643,doc,1cm,491.18,482.48,-311.38,0_0
2,5,0.1559,12280,38.1613,39810.7171,doc,1cm,395.21,389.65,-248.52,0_0
2,5,0.127,12280,37.1585,63095.7344,doc,1cm,320.04,316.58,-196.22,0_0
2,5,0.1045,12280,35.4137,100000,doc,1cm,262.13,260.02,-153.9,0_0
2,5,0.0869,12280,33.2418,158489.319,doc,1cm,217.2,215.92,-120.46,0_0
2,5,0.0799,12280,32.0333,200000,doc,1cm,199.42,198.41,-106.96,0_0
2,5,1.6669,12280,39.4717,20,ngang,1cm,6141.29,4575.09,-4363.33,0_0
2,5,1.5023,12280,39.4156,25.1188643,ngang,1cm,5274.39,4122.48,-3742.17,0_0
2,5,1.2322,12280,38.4316,39.8107171,ngang,1cm,4015.98,3380.02,-2788.29,0_0
2,5,1.03,12280,36.5983,63.0957344,ngang,1cm,3185.99,2822.12,-2119.24,0_0
2,5,0.8711,12280,33.7723,100,ngang,1cm,2590.79,2384.98,-1605.61,0_0
2,5,0.7486,12280,30.9019,158.489319,ngang,1cm,2162.3,2042.13,-1233.51,0_0
2,5,0.6581,12280,28.3731,251.188643,ngang,1cm,1861.27,1786.29,-977.57,0_0
2,5,0.5831,12280,26.5009,398.107171,ngang,1cm,1621.15,1571.73,-793.94,0_0
2,5,0.5218,12280,25.4046,630.957344,ngang,1cm,1430.87,1395.7,-668.56,0_0
2,5,0.4686,12280,25.2387,1000,ngang,1cm,1269.9,1242.78,-584.73,0_0
2,5,0.416,12280,25.82,1584.89319,ngang,1cm,1114.42,1092.78,-519.17,0_0
2,5,0.3676,12280,26.7758,2511.88643,ngang,1cm,974.47,956.86,-465.29,0_0
2,5,0.3209,12280,28.1068,3981.07171,ngang,1cm,842.18,827.84,-416.77,0_0
2,5,0.2769,12280,29.524,6309.57344,ngang,1cm,719.94,708.49,-369.62,0_0
2,5,0.2376,12280,30.8821,10000,ngang,1cm,612.66,603.66,-325.32,0_0
2,5,0.2008,12280,32.075,15848.9319,ngang,1cm,513.8,507.03,-280.52,0_0
2,5,0.1687,12280,32.9955,25118.8643,ngang,1cm,428.79,423.83,-238.88,0_0
2,5,0.1406,12280,33.4949,39810.7171,ngang,1cm,355.3,351.81,-199.78,0_0
2,5,0.1171,12280,33.3246,63095.7344,ngang,1cm,294.49,292.12,-164.34,0_0
2,5,0.098,12280,32.3311,100000,ngang,1cm,245.5,243.95,-133.08,0_0
2,5,0.0826,12280,30.7911,158489.319,ngang,1cm,206.27,205.28,-106.85,0_0
2,5,0.0761,12280,29.8095,200000,ngang,1cm,189.79,189.0,-95.41,0_0
2,5,1.1018,12280,38.9482,20,doc,1cm,3470.86,2988.83,-2410.09,1_0
2,5,0.9643,12280,43.8998,25.1188643,doc,1cm,2934.21,2517.38,-2162.88,1_0
2,5,0.7936,12280,41.4997,39.8107171,doc,1cm,2316.8,2082.14,-1640.11,1_0
2,5,0.6531,12280,38.1096,63.0957344,doc,1cm,1845.01,1718.27,-1219.88,1_0
2,5,0.5445,12280,33.6764,100,doc,1cm,1500.72,1434.6,-892.75,1_0
2,5,0.4687,12280,29.1015,158.489319,doc,1cm,1270.2,1234.56,-662.58,1_0
2,5,0.4129,12280,24.9323,251.188643,doc,1cm,1105.36,1085.48,-498.78,1_0
2,5,0.3746,12280,21.491,398.107171,doc,1cm,994.53,982.54,-389.12,1_0
2,5,0.3439,12280,19.013,630.957344,doc,1cm,907.0,899.2,-314.59,1_0
2,5,0.3214,12280,17.6397,1000,doc,1cm,843.58,837.79,-271.32,1_0
2,5,0.3009,12280,17.4568,1584.89319,doc,1cm,786.33,781.42,-249.43,1_0
2,5,0.2805,12280,18.4103,2511.88643,doc,1cm,729.85,725.17,-242.64,1_0
2,5,0.2578,12280,20.4085,3981.07171,doc,1cm,667.58,662.79,-243.69,1_0
2,5,0.2339,12280,23.1845,6309.57344,doc,1cm,602.65,597.66,-246.85,1_0
2,5,0.2069,12280,26.3282,10000,doc,1cm,530.08,525.16,-242.98,1_0
2,5,0.1788,12280,29.4875,15848.9319,doc,1cm,455.42,450.91,-230.19,1_0
2,5,0.151,12280,32.2987,25118.8643,doc,1cm,382.4,378.62,-208.62,1_0
2,5,0.1255,12280,34.501,39810.7171,doc,1cm,316.16,313.24,-182.0,1_0
2,5,0.1031,12280,35.7146,63095.7344,doc,1cm,258.54,256.46,-152.87,1_0
2,5,0.0844,12280,35.8793,100000,doc,1cm,210.85,209.44,-124.87,1_0
2,5,0.069,12280,35.0753,158489.319,doc,1cm,171.84,170.94,-99.61,1_0
2,5,0.0627,12280,34.414,200000,doc,1cm,155.95,155.24,-88.86,1_0
2,5,0.9601,12280,53.8506,20,ngang,1cm,2918.4,2350.78,-2349.72,1_0
2,5,0.8397,12280,54.1605,25.1188643,ngang,1cm,2478.55,2063.25,-2010.52,1_0
2,5,0.6214,12280,53.9614,39.8107171,ngang,1cm,1742.75,1537.35,-1419.78,1_0
2,5,0.4969,12280,52.8084,63.0957344,ngang,1cm,1355.05,1235.15,-1092.67,1_0
2,5,0.3795,12280,50.0592,100,ngang,1cm,1008.61,948.14,-786.75,1_0
2,5,0.2937,12280,46.3577,158.489319,ngang,1cm,766.34,736.02,-565.93,1_0
2,5,0.2332,12280,41.7796,251.188643,ngang,1cm,600.76,585.43,-409.17,1_0
2,5,0.1906,12280,36.7451,398.107171,ngang,1cm,486.67,478.79,-297.81,1_0
2,5,0.1609,12280,31.6819,630.957344,ngang,1cm,408.31,404.15,-219.33,1_0
2,5,0.141,12280,27.1102,1000,ngang,1cm,356.34,354.01,-166.01,1_0
2,5,0.1261,12280,23.4391,1584.89319,ngang,1cm,317.71,316.32,-129.08,1_0
2,5,0.1153,12280,20.9358,2511.88643,ngang,1cm,289.86,288.93,-105.68,1_0
2,5,0.1057,12280,19.5664,3981.07171,ngang,1cm,265.21,264.53,-90.5,1_0
2,5,0.0972,12280,19.2405,6309.57344,ngang,1cm,243.46,242.9,-81.63,1_0
2,5,0.0891,12280,19.6879,10000,ngang,1cm,222.8,222.32,-76.26,1_0
2,5,0.0813,12280,20.5939,15848.9319,ngang,1cm,202.97,202.53,-72.42,1_0
2,5,0.0725,12280,21.6613,25118.8643,ngang,1cm,180.68,180.3,-67.53,1_0
2,5,0.0644,12280,22.5817,39810.7171,ngang,1cm,160.23,159.9,-62.21,1_0
2,5,0.0572,12280,22.9889,63095.7344,ngang,1cm,142.11,141.84,-56.04,1_0
2,5,0.0505,12280,22.866,100000,ngang,1cm,125.29,125.09,-49.1,1_0
2,5,0.0447,12280,22.4802,158489.319,ngang,1cm,110.77,110.62,-42.68,1_0
2,5,0.0421,12280,22.163,200000,ngang,1cm,104.28,104.14,-39.62,1_0
2,5,1.1356,12280,42.9006,20,doc,1cm,3608.62,2998.39,-2641.18,2_0
2,5,0.9703,12280,48.934,25.1188643,doc,1cm,2956.87,2453.5,-2295.56,2_0
2,5,0.7871,12280,48.8275,39.8107171,doc,1cm,2294.28,1992.13,-1779.93,2_0
2,5,0.6221,12280,47.7396,63.0957344,doc,1cm,1744.99,1577.13,-1333.25,2_0
2,5,0.4914,12280,45.0211,100,doc,1cm,1338.42,1249.71,-980.46,2_0
2,5,0.3913,12280,41.2935,158.489319,doc,1cm,1042.63,996.87,-713.77,2_0
2,5,0.3218,12280,36.9901,251.188643,doc,1cm,844.71,820.37,-527.59,2_0
2,5,0.2709,12280,32.4557,398.107171,doc,1cm,703.44,690.35,-391.71,2_0
2,5,0.2352,12280,28.1572,630.957344,doc,1cm,606.17,598.8,-296.53,2_0
2,5,0.2093,12280,24.5021,1000,doc,1cm,536.5,532.11,-230.33,2_0
2,5,0.1892,12280,21.6983,1584.89319,doc,1cm,482.95,480.16,-184.51,2_0
2,5,0.1732,12280,19.832,2511.88643,doc,1cm,440.64,438.7,-154.18,2_0
2,5,0.1603,12280,18.9913,3981.07171,doc,1cm,406.74,405.22,-136.24,2_0
2,5,0.1478,12280,19.1381,6309.57344,doc,1cm,374.05,372.75,-125.93,2_0
2,5,0.1355,12280,20.0304,10000,doc,1cm,342.06,340.87,-120.01,2_0
2,5,0.1227,12280,21.4571,15848.9319,doc,1cm,308.93,307.83,-115.44,2_0
2,5,0.1099,12280,23.2839,25118.8643,doc,1cm,275.98,274.94,-111.13,2_0
2,5,0.0969,12280,25.0391,39810.7171,doc,1cm,242.69,241.77,-104.35,2_0
2,5,0.0843,12280,26.3999,63095.7344,doc,1cm,210.59,209.82,-94.9,2_0
2,5,0.073,12280,27.1369,100000,doc,1cm,181.94,181.34,-83.94,2_0
2,5,0.0628,12280,27.3022,158489.319,doc,1cm,156.2,155.75,-72.35,2_0
2,5,0.0585,12280,27.1835,200000,doc,1cm,145.38,144.99,-67.02,2_0
2,5,0.0059,12280,52.0936,20,ngang,1cm,14.51,14.49,-11.45,2_0
2,5,0.8657,12280,52.7691,25.1188643,ngang,1cm,2571.37,2142.39,-2063.28,2_0
2,5,0.6703,12280,40.5565,39.8107171,ngang,1cm,1901.12,1750.58,-1314.55,2_0
2,5,0.5181,12280,51.8845,63.0957344,ngang,1cm,1419.55,1291.82,-1134.01,2_0
2,5,0.3969,12280,49.0274,100,ngang,1cm,1058.84,994.57,-815.77,2_0
2,5,0.3094,12280,45.3496,158.489319,ngang,1cm,810.01,777.43,-589.61,2_0
2,5,0.2464,12280,40.8034,251.188643,ngang,1cm,636.53,620.04,-426.21,2_0
2,5,0.2038,12280,35.8172,398.107171,ngang,1cm,521.8,513.17,-313.09,2_0
2,5,0.1729,12280,30.8408,630.957344,ngang,1cm,439.85,435.27,-231.14,2_0
2,5,0.152,12280,26.335,1000,ngang,1cm,385.02,382.44,-174.98,2_0
2,5,0.1364,12280,22.6913,1584.89319,ngang,1cm,344.39,342.85,-135.97,2_0
2,5,0.1247,12280,20.1309,2511.88643,ngang,1cm,314.1,313.09,-110.51,2_0
2,5,0.1151,12280,18.5793,3981.07171,ngang,1cm,289.35,288.62,-94.13,2_0
2,5,0.1066,12280,18.0249,6309.57344,ngang,1cm,267.51,266.93,-84.4,2_0
2,5,0.0982,12280,18.2438,10000,ngang,1cm,246.01,245.5,-78.4,2_0
2,5,0.0901,12280,18.9438,15848.9319,ngang,1cm,225.35,224.89,-74.35,2_0
2,5,0.0819,12280,19.959,25118.8643,ngang,1cm,204.5,204.08,-70.82,2_0
2,5,0.0738,12280,20.966,39810.7171,ngang,1cm,183.97,183.59,-66.68,2_0
2,5,0.066,12280,21.6983,63095.7344,ngang,1cm,164.26,163.95,-61.43,2_0
2,5,0.0589,12280,22.0722,100000,ngang,1cm,146.38,146.12,-55.56,2_0
2,5,0.0524,12280,22.2426,158489.319,ngang,1cm,130.06,129.85,-49.67,2_0
2,5,0.0494,12280,22.2638,200000,ngang,1cm,122.54,122.35,-46.82,2_0
3,5,2.2835,12280,16.6386,20,doc,1cm,10322.61,9138.36,-4816.28,0_0
3,5,2.0809,12280,15.6323,25.1188643,doc,1cm,8753.88,8028.5,-3705.64,0_0
3,5,1.9796,12280,14.0953,39.8107171,doc,1cm,8048.43,7554.74,-3045.75,0_0
3,5,0.5296,12280,14.5338,63.0957344,doc,1cm,1454.79,1442.54,-404.9,0_0
3,5,0.581,12280,12.9961,100,doc,1cm,1614.55,1602.32,-407.72,0_0
3,5,1.8358,12280,13.0139,158.489319,doc,1cm,7124.59,6804.07,-2421.16,0_0
3,5,1.7516,12280,14.4767,251.188643,doc,1cm,6621.61,6290.0,-2420.33,0_0
3,5,1.5867,12280,16.5066,398.107171,doc,1cm,5708.46,5404.98,-2249.62,0_0
3,5,1.4781,12280,19.9269,630.957344,doc,1cm,5153.77,4810.43,-2327.63,0_0
3,5,1.3443,12280,24.4806,1000,doc,1cm,4515.69,4141.05,-2347.09,0_0
3,5,1.1817,12280,29.8392,1584.89319,doc,1cm,3800.45,3431.51,-2235.95,0_0
3,5,0.9987,12280,35.4242,2511.88643,doc,1cm,3065.01,2747.53,-1990.17,0_0
3,5,0.8138,12280,40.652,3981.07171,doc,1cm,2387.24,2146.48,-1670.34,0_0
3,5,0.6414,12280,45.076,6309.57344,doc,1cm,1807.09,1643.82,-1335.32,0_0
3,5,0.4961,12280,48.4803,10000,doc,1cm,1352.63,1249.45,-1038.67,0_0
3,5,0.377,12280,50.8055,15848.9319,doc,1cm,1001.42,940.25,-788.22,0_0
3,5,0.2834,12280,52.159,25118.8643,doc,1cm,737.85,703.13,-588.72,0_0
3,5,0.2123,12280,52.3584,39810.7171,doc,1cm,544.53,525.51,-434.63,0_0
3,5,0.1588,12280,51.2644,63095.7344,doc,1cm,402.81,392.79,-316.49,0_0
3,5,0.1204,12280,48.8106,100000,doc,1cm,303.0,297.82,-229.68,0_0
3,5,0.0928,12280,45.2981,158489.319,doc,1cm,232.23,229.58,-166.28,0_0
3,5,0.0824,12280,43.1732,200000,doc,1cm,205.77,203.87,-141.84,0_0
3,5,0.0834,12280,30.4124,20,ngang,1cm,208.3,207.31,-106.73,0_0
3,5,0.293,12280,29.9327,25.1188643,ngang,1cm,764.4,751.12,-398.14,0_0
3,5,1.4927,12280,28.2688,39.8107171,ngang,1cm,5226.34,4565.35,-3082.58,0_0
3,5,1.0663,12280,26.379,63.0957344,ngang,1cm,3328.71,3105.74,-1754.02,0_0
3,5,1.1883,12280,23.3546,100,ngang,1cm,3828.3,3587.76,-1865.71,0_0
3,5,1.0811,12280,21.3265,158.489319,ngang,1cm,3387.66,3231.79,-1499.62,0_0
3,5,0.996,12280,20.1781,251.188643,ngang,1cm,3054.67,2942.4,-1267.45,0_0
3,5,0.9237,12280,19.8775,398.107171,ngang,1cm,2782.68,2693.41,-1123.33,0_0
3,5,0.8584,12280,20.7811,630.957344,ngang,1cm,2545.19,2464.88,-1055.82,0_0
3,5,0.7851,12280,22.9009,1000,ngang,1cm,2287.37,2210.31,-1020.36,0_0
3,5,0.7059,12280,26.1912,1584.89319,ngang,1cm,2018.69,1942.27,-998.22,0_0
3,5,0.6084,12280,30.1102,2511.88643,ngang,1cm,1701.24,1631.7,-932.01,0_0
3,5,0.5155,12280,34.494,3981.07171,ngang,1cm,1411.6,1350.65,-852.88,0_0
3,5,0.4232,12280,38.4117,6309.57344,ngang,1cm,1135.49,1087.83,-738.43,0_0
3,5,0.3385,12280,41.3652,10000,ngang,1cm,891.73,858.29,-608.45,0_0
3,5,0.2661,12280,43.0442,15848.9319,ngang,1cm,690.28,668.84,-482.23,0_0
3,5,0.209,12280,43.4518,25118.8643,ngang,1cm,535.7,522.61,-375.13,0_0
3,5,0.164,12280,42.8088,39810.7171,ngang,1cm,416.44,408.77,-287.23,0_0
3,5,0.1303,12280,41.1364,63095.7344,ngang,1cm,328.58,324.16,-218.97,0_0
3,5,0.1051,12280,38.6069,100000,ngang,1cm,263.67,261.15,-166.46,0_0
3,5,0.0863,12280,35.643,158489.319,ngang,1cm,215.68,214.23,-127.04,0_0
3,5,0.0789,12280,34.0796,200000,ngang,1cm,196.89,195.78,-111.47,0_0
3,5,1.405,12280,36.2825,20,doc,1cm,4799.28,3963.44,-3262.36,1_0
3,5,1.2186,12280,34.7013,25.1188643,doc,1cm,3957.37,3436.2,-2586.83,1_0
3,5,1.0369,12280,31.5334,39.8107171,doc,1cm,3212.92,2927.36,-1931.68,1_0
3,5,0.907,12280,27.9061,63.0957344,doc,1cm,2721.22,2559.94,-1463.67,1_0
3,5,0.7953,12280,23.7499,100,doc,1cm,2322.71,2237.4,-1071.57,1_0
3,5,0.7281,12280,20.1195,158.489319,doc,1cm,2093.0,2043.2,-822.63,1_0
3,5,0.4288,12280,17.4194,251.188643,doc,1cm,1151.92,1141.16,-373.67,1_0
3,5,0.6369,12280,15.8112,398.107171,doc,1cm,1792.56,1770.13,-552.72,1_0
3,5,0.6001,12280,15.3779,630.957344,doc,1cm,1674.86,1656.46,-499.18,1_0
3,5,0.5683,12280,16.0982,1000,doc,1cm,1574.73,1557.04,-487.11,1_0
3,5,0.5308,12280,18.0445,1584.89319,doc,1cm,1458.48,1439.64,-498.91,1_0
3,5,0.4902,12280,21.0337,2511.88643,doc,1cm,1334.79,1313.67,-522.76,1_0
3,5,0.443,12280,24.8999,3981.07171,doc,1cm,1193.78,1170.53,-540.76,1_0
3,5,0.3868,12280,29.3865,6309.57344,doc,1cm,1029.63,1006.06,-535.09,1_0
3,5,0.3275,12280,33.977,10000,doc,1cm,860.72,839.17,-501.88,1_0
3,5,0.2684,12280,38.1716,15848.9319,doc,1cm,696.58,679.12,-443.55,1_0
3,5,0.2148,12280,41.5316,25118.8643,doc,1cm,551.23,538.48,-373.09,1_0
3,5,0.1688,12280,43.68,39810.7171,doc,1cm,429.06,420.6,-300.66,1_0
3,5,0.1307,12280,44.3406,63095.7344,doc,1cm,329.62,324.49,-232.9,1_0
3,5,0.1024,12280,43.4363,100000,doc,1cm,256.75,253.76,-178.14,1_0
3,5,0.0807,12280,41.3742,158489.319,doc,1cm,201.45,199.77,-134.22,1_0
3,5,0.0719,12280,39.9486,200000,doc,1cm,179.16,177.92,-115.92,1_0
3,5,0.091,12280,44.1708,20,ngang,1cm,227.64,225.21,-159.85,1_0
3,5,1.0595,12280,43.5585,25.1188643,ngang,1cm,3301.78,2779.28,-2430.4,1_0
3,5,0.8511,12280,41.5144,39.8107171,ngang,1cm,2519.1,2240.56,-1789.88,1_0
3,5,0.6423,12280,38.5718,63.0957344,ngang,1cm,1810.0,1685.48,-1205.88,1_0
3,5,0.5841,12280,33.9401,100,ngang,1cm,1624.3,1545.34,-976.99,1_0
3,5,0.5038,12280,29.3414,158.489319,ngang,1cm,1375.98,1333.29,-726.57,1_0
3,5,0.4469,12280,25.2164,251.188643,ngang,1cm,1205.32,1181.02,-552.56,1_0
3,5,0.4055,12280,21.8873,398.107171,ngang,1cm,1083.8,1068.98,-433.68,1_0
3,5,0.3728,12280,19.7692,630.957344,ngang,1cm,989.36,979.29,-357.92,1_0
3,5,0.3469,12280,18.9817,1000,ngang,1cm,915.5,907.58,-317.22,1_0
3,5,0.3248,12280,19.5757,1584.89319,ngang,1cm,853.13,845.85,-303.1,1_0
3,5,0.2986,12280,21.446,2511.88643,ngang,1cm,779.94,772.69,-300.47,1_0
3,5,0.2696,12280,24.3305,3981.07171,ngang,1cm,699.87,692.44,-301.56,1_0
3,5,0.2379,12280,27.7611,6309.57344,ngang,1cm,613.47,606.13,-296.44,1_0
3,5,0.2033,12280,31.184,10000,ngang,1cm,520.47,513.88,-277.37,1_0
3,5,0.1695,12280,34.0331,15848.9319,ngang,1cm,430.9,425.58,-246.56,1_0
3,5,0.139,12280,35.9312,25118.8643,ngang,1cm,351.15,347.24,-209.6,1_0
3,5,0.1127,12280,36.6293,39810.7171,ngang,1cm,283.17,280.54,-171.25,1_0
3,5,0.0919,12280,36.0461,63095.7344,ngang,1cm,229.93,228.25,-136.83,1_0
3,5,0.0755,12280,34.3836,100000,ngang,1cm,188.27,187.24,-107.37,1_0
3,5,0.0632,12280,32.1632,158489.319,ngang,1cm,157.21,156.58,-84.42,1_0
