sample,Vin,Vout,R1,phase,freq,type,length,Z,Re(Z),Im(Z),state
1,5,1.7207,12280,0.8679,20,doc,1cm,6443.51,6442.33,-148.79,0_0
1,5,1.9606,12280,1.0093,25.1188643,doc,1cm,7921.36,7918.75,-229.46,0_0
1,5,1.953,12280,1.343,39.8107171,doc,1cm,7870.97,7866.42,-302.54,0_0
1,5,1.9483,12280,1.8272,63.0957344,doc,1cm,7839.93,7831.6,-409.14,0_0
1,5,1.9191,12280,1.869,100,doc,1cm,7649.24,7641.02,-404.44,0_0
1,5,1.8938,12280,2.0624,158.489319,doc,1cm,7486.92,7477.41,-433.16,0_0
1,5,1.175,12280,2.3391,251.188643,doc,1cm,3772.29,3769.76,-201.12,0_0
1,5,1.8498,12280,2.7387,398.107171,doc,1cm,7210.83,7195.5,-545.69,0_0
1,5,1.8247,12280,3.1279,630.957344,doc,1cm,7056.76,7037.78,-604.69,0_0
1,5,1.7934,12280,3.6725,1000,doc,1cm,6868.01,6843.49,-683.51,0_0
1,5,1.7691,12280,4.4173,1584.89319,doc,1cm,6723.99,6690.3,-797.44,0_0
1,5,1.735,12280,5.4652,2511.88643,doc,1cm,6525.51,6477.58,-944.77,0_0
1,5,1.6967,12280,6.9782,3981.07171,doc,1cm,6307.47,6235.63,-1146.7,0_0
1,5,1.6466,12280,9.1104,6309.57344,doc,1cm,6029.78,5920.38,-1397.72,0_0
1,5,1.5875,12280,12.1011,10000,doc,1cm,5712.67,5544.66,-1703.12,0_0
1,5,1.5128,12280,16.2572,15848.9319,doc,1cm,5327.25,5074.73,-2037.01,0_0
1,5,1.4105,12280,22.0607,25118.8643,doc,1cm,4825.45,4467.25,-2337.24,0_0
1,5,1.2882,12280,30.1198,39810.7171,doc,1cm,4261.84,3783.9,-2557.93,0_0
1,5,1.1167,12280,40.94,63095.7344,doc,1cm,3531.29,2989.45,-2522.45,0_0
1,5,0.89,12280,54.3817,100000,doc,1cm,2659.17,2179.23,-2155.5,0_0
1,5,0.6394,12280,68.9049,158489.319,doc,1cm,1800.63,1481.34,-1585.12,0_0
1,5,0.5187,12280,75.8265,200000,doc,1cm,1421.38,1189.04,-1286.67,0_0
1,5,1.9665,12280,0.8704,20,doc,1cm,7960.65,7958.68,-199.27,0_0
1,5,0.0295,12280,0.8341,25.1188643,doc,1cm,72.88,72.88,-1.07,0_0
1,5,1.9535,12280,1.3544,39.8107171,doc,1cm,7874.28,7869.65,-305.29,0_0
1,5,1.9459,12280,1.8338,63.0957344,doc,1cm,7824.12,7815.77,-409.46,0_0
1,5,1.9184,12280,1.8356,100,doc,1cm,7644.71,7636.8,-396.9,0_0
1,5,1.893,12280,2.0626,158.489319,doc,1cm,7481.83,7472.33,-432.8,0_0
1,5,1.8696,12280,2.3798,251.188643,doc,1cm,7334.11,7322.06,-485.62,0_0
1,5,1.8504,12280,2.6649,398.107171,doc,1cm,7214.54,7200.01,-531.43,0_0
1,5,1.8235,12280,3.0497,630.957344,doc,1cm,7049.45,7031.45,-588.84,0_0
1,5,1.7951,12280,3.5504,1000,doc,1cm,6878.16,6855.16,-662.29,0_0
1,5,1.7697,12280,4.2231,1584.89319,doc,1cm,6727.52,6696.68,-763.31,0_0
1,5,1.739,12280,5.1907,2511.88643,doc,1cm,6548.58,6504.94,-902.35,0_0
1,5,1.7018,12280,6.6225,3981.07171,doc,1cm,6336.21,6270.74,-1096.34,0_0
1,5,1.6564,12280,8.6386,6309.57344,doc,1cm,6083.44,5982.85,-1343.82,0_0
1,5,1.6,12280,11.4673,10000,doc,1cm,5778.82,5623.4,-1644.11,0_0
1,5,1.5287,12280,15.4638,15848.9319,doc,1cm,5407.9,5170.36,-1985.7,0_0
1,5,1.4367,12280,21.1063,25118.8643,doc,1cm,4951.22,4601.76,-2325.29,0_0
1,5,1.3145,12280,29.014,39810.7171,doc,1cm,4379.88,3905.34,-2569.91,0_0
1,5,1.1496,12280,39.7079,63095.7344,doc,1cm,3666.4,3109.77,-2580.17,0_0
1,5,0.9275,12280,53.091,100000,doc,1cm,2796.73,2285.69,-2244.21,0_0
1,5,0.6676,12280,67.5655,158489.319,doc,1cm,1892.28,1550.75,-1654.66,0_0
1,5,0.5437,12280,74.4557,200000,doc,1cm,1498.25,1247.75,-1349.16,0_0
1,5,0.0235,12280,44.4924,20,doc,1cm,57.99,57.83,-40.72,1_0
1,5,0.7875,12280,47.0698,25.1188643,doc,1cm,2295.67,2010.82,-1747.74,1_0
1,5,0.6142,12280,51.644,39.8107171,doc,1cm,1719.73,1533.66,-1371.27,1_0
1,5,0.4708,12280,55.2075,63.0957344,doc,1cm,1276.48,1161.79,-1053.43,1_0
1,5,0.3498,12280,57.0979,100,doc,1cm,923.73,860.03,-776.53,1_0
1,5,0.2586,12280,57.9321,158.489319,doc,1cm,669.76,635.37,-567.88,1_0
1,5,0.19,12280,57.521,251.188643,doc,1cm,485.07,467.23,-409.78,1_0
1,5,0.1393,12280,55.8083,398.107171,doc,1cm,351.93,343.01,-291.9,1_0
1,5,0.1032,12280,52.7474,630.957344,doc,1cm,258.8,254.44,-206.83,1_0
1,5,0.0782,12280,48.3994,1000,doc,1cm,195.11,193.0,-146.63,1_0
1,5,0.0611,12280,43.1131,1584.89319,doc,1cm,151.92,150.88,-104.41,1_0
1,5,0.0496,12280,37.324,2511.88643,doc,1cm,123.04,122.52,-75.04,1_0
1,5,0.0418,12280,31.7673,3981.07171,doc,1cm,103.53,103.26,-54.82,1_0
1,5,0.0365,12280,26.8514,6309.57344,doc,1cm,90.3,90.16,-41.02,1_0
1,5,0.0326,12280,22.8322,10000,doc,1cm,80.59,80.51,-31.44,1_0
1,5,0.0297,12280,19.654,15848.9319,doc,1cm,73.38,73.33,-24.81,1_0
1,5,0.0275,12280,17.1144,25118.8643,doc,1cm,67.91,67.88,-20.09,1_0
1,5,0.0256,12280,15.4207,39810.7171,doc,1cm,63.2,63.17,-16.88,1_0
1,5,0.0239,12280,14.1676,63095.7344,doc,1cm,58.98,58.96,-14.5,1_0
1,5,0.0225,12280,13.4777,100000,doc,1cm,55.51,55.5,-12.99,1_0
1,5,0.0212,12280,13.2738,158489.319,doc,1cm,52.29,52.28,-12.05,1_0
1,5,0.0207,12280,13.4488,200000,doc,1cm,51.05,51.04,-11.92,1_0
1,5,0.0059,12280,42.8836,20,ngang,1cm,14.51,14.5,-9.88,1_0
1,5,0.8218,12280,45.5785,25.1188643,ngang,1cm,2415.32,2116.13,-1808.83,1_0
1,5,0.648,12280,50.008,39.8107171,ngang,1cm,1828.46,1629.06,-1434.1,1_0
1,5,0.5002,12280,53.7975,63.0957344,ngang,1cm,1365.05,1239.5,-1111.54,1_0
1,5,0.3753,12280,56.0713,100,ngang,1cm,996.54,924.69,-829.64,1_0
1,5,0.2788,12280,57.3586,158.489319,ngang,1cm,725.17,685.55,-611.47,1_0
1,5,0.1397,12280,57.5896,251.188643,ngang,1cm,352.97,343.48,-298.36,1_0
1,5,0.1499,12280,56.4801,398.107171,ngang,1cm,379.53,368.95,-317.14,1_0
1,5,0.1104,12280,54.0256,630.957344,ngang,1cm,277.26,272.04,-225.16,1_0
1,5,0.0827,12280,50.0647,1000,ngang,1cm,206.53,204.0,-159.07,1_0
1,5,0.0637,12280,44.9256,1584.89319,ngang,1cm,158.47,157.25,-112.49,1_0
1,5,0.051,12280,38.821,2511.88643,ngang,1cm,126.55,125.96,-79.78,1_0
1,5,0.0426,12280,32.9359,3981.07171,ngang,1cm,105.52,105.23,-57.71,1_0
1,5,0.037,12280,27.3887,6309.57344,ngang,1cm,91.55,91.39,-42.36,1_0
1,5,0.0331,12280,22.8463,10000,ngang,1cm,81.84,81.75,-31.95,1_0
1,5,0.0299,12280,19.3735,15848.9319,ngang,1cm,73.88,73.82,-24.64,1_0
1,5,0.0276,12280,16.8126,25118.8643,ngang,1cm,68.16,68.13,-19.82,1_0
1,5,0.0258,12280,15.0517,39810.7171,ngang,1cm,63.69,63.67,-16.62,1_0
1,5,0.0243,12280,13.8376,63095.7344,ngang,1cm,59.97,59.95,-14.41,1_0
1,5,0.0232,12280,13.111,100000,ngang,1cm,57.24,57.23,-13.04,1_0
1,5,0.022,12280,13.1682,158489.319,ngang,1cm,54.27,54.26,-12.42,1_0
1,5,0.0214,12280,13.4367,200000,ngang,1cm,52.78,52.77,-12.32,1_0
1,5,0.4237,12280,46.0581,20,doc,1cm,1136.95,1070.54,-842.29,2_0
1,5,0.4625,12280,46.6108,25.1188643,doc,1cm,1251.68,1169.31,-936.46,2_0
1,5,0.3675,12280,47.558,39.8107171,doc,1cm,974.18,922.69,-735.01,2_0
1,5,0.2929,12280,48.8185,63.0957344,doc,1cm,764.12,731.03,-584.5,2_0
1,5,0.2285,12280,49.2405,100,doc,1cm,588.07,568.21,-451.06,2_0
1,5,0.1755,12280,50.7803,158.489319,doc,1cm,446.71,434.6,-348.99,2_0
1,5,0.1334,12280,51.2068,251.188643,doc,1cm,336.61,329.63,-264.0,2_0
1,5,0.1014,12280,50.8521,398.107171,doc,1cm,254.19,250.26,-198.13,2_0
1,5,0.077,12280,49.5288,630.957344,doc,1cm,192.07,189.93,-146.76,2_0
1,5,0.0591,12280,47.2921,1000,doc,1cm,146.89,145.74,-108.38,2_0
1,5,0.0463,12280,43.7557,1584.89319,doc,1cm,114.78,114.17,-79.7,2_0
1,5,0.0371,12280,39.8189,2511.88643,doc,1cm,91.8,91.47,-59.02,2_0
1,5,0.0306,12280,36.0815,3981.07171,doc,1cm,75.62,75.43,-44.7,2_0
1,5,0.026,12280,32.6073,6309.57344,doc,1cm,64.19,64.08,-34.71,2_0
1,5,0.0224,12280,29.7164,10000,doc,1cm,55.26,55.19,-27.48,2_0
1,5,0.0182,12280,27.6819,15848.9319,doc,1cm,44.86,44.82,-20.9,2_0
1,5,0.017,12280,25.8552,25118.8643,doc,1cm,41.89,41.86,-18.32,2_0
1,5,0.0149,12280,23.9414,39810.7171,doc,1cm,36.7,36.68,-14.93,2_0
1,5,0.0132,12280,21.6734,63095.7344,doc,1cm,32.51,32.49,-12.03,2_0
1,5,0.012,12280,19.834,100000,doc,1cm,29.54,29.53,-10.05,2_0
1,5,0.011,12280,18.1251,158489.319,doc,1cm,27.08,27.07,-8.44,2_0
1,5,0.0106,12280,17.8905,200000,doc,1cm,26.09,26.08,-8.03,2_0
1,5,0.4982,12280,46.2656,20,ngang,1cm,1358.99,1263.0,-1013.69,2_0
1,5,0.447,12280,47.1489,25.1188643,ngang,1cm,1205.61,1127.69,-908.0,2_0
1,5,0.3563,12280,47.7129,39.8107171,ngang,1cm,942.22,893.79,-712.03,2_0
1,5,0.0586,12280,49.898,63.0957344,ngang,1cm,145.63,144.38,-111.76,2_0
1,5,0.2194,12280,51.1451,100,ngang,1cm,563.58,544.04,-443.17,2_0
1,5,0.167,12280,52.2837,158.489319,ngang,1cm,424.32,412.81,-337.88,2_0
1,5,0.1263,12280,52.838,251.188643,ngang,1cm,318.23,311.63,-254.82,2_0
1,5,0.0949,12280,52.4567,398.107171,ngang,1cm,237.58,233.95,-189.11,2_0
1,5,0.0712,12280,50.8955,630.957344,ngang,1cm,177.39,175.47,-138.15,2_0
1,5,0.0534,12280,47.8682,1000,ngang,1cm,132.57,131.61,-98.66,2_0
1,5,0.0416,12280,43.9005,1584.89319,ngang,1cm,103.03,102.53,-71.7,2_0
1,5,0.033,12280,39.4383,2511.88643,ngang,1cm,81.59,81.33,-52.01,2_0
1,5,0.0278,12280,34.7703,3981.07171,ngang,1cm,68.66,68.52,-39.3,2_0
1,5,0.0238,12280,30.7375,6309.57344,ngang,1cm,58.73,58.65,-30.12,2_0
1,5,0.0206,12280,27.163,10000,ngang,1cm,50.8,50.75,-23.27,2_0
1,5,0.018,12280,24.5269,15848.9319,ngang,1cm,44.37,44.34,-18.47,2_0
1,5,0.0164,12280,22.2622,25118.8643,ngang,1cm,40.41,40.39,-15.35,2_0
1,5,0.0147,12280,19.8249,39810.7171,ngang,1cm,36.21,36.2,-12.31,2_0
1,5,0.0136,12280,17.9279,63095.7344,ngang,1cm,33.49,33.48,-10.34,2_0
1,5,0.0125,12280,16.2885,100000,ngang,1cm,30.78,30.77,-8.65,2_0
1,5,0.0117,12280,15.2663,158489.319,ngang,1cm,28.8,28.8,-7.6,2_0
1,5,0.0113,12280,14.9745,200000,ngang,1cm,27.82,27.81,-7.2,2_0
2,5,0.045,12280,1.1667,20,doc,1cm,111.52,111.52,-2.29,0_0
2,5,1.9575,12280,1.5839,25.1188643,doc,1cm,7900.77,7894.39,-358.6,0_0
2,5,0.5738,12280,2.213,39.8107171,doc,1cm,1591.94,1591.6,-69.43,0_0
2,5,1.9308,12280,2.4025,63.0957344,doc,1cm,7725.21,7711.32,-526.61,0_0
2,5,1.8976,12280,2.6449,100,doc,1cm,7511.13,7495.38,-557.44,0_0
2,5,1.864,12280,3.0891,158.489319,doc,1cm,7299.08,7279.03,-625.41,0_0
2,5,1.8284,12280,3.6119,251.188643,doc,1cm,7079.31,7053.84,-700.56,0_0
2,5,1.7888,12280,4.1381,398.107171,doc,1cm,6840.58,6809.77,-765.13,0_0
2,5,1.7437,12280,4.702,630.957344,doc,1cm,6575.76,6539.55,-823.13,0_0
2,5,1.7018,12280,5.2511,1000,doc,1cm,6336.21,6294.87,-873.37,0_0
2,5,1.6569,12280,5.866,1584.89319,doc,1cm,6086.19,6039.29,-923.14,0_0
2,5,1.617,12280,6.75,2511.88643,doc,1cm,5869.57,5812.63,-1009.76,0_0
2,5,1.5687,12280,8.0297,3981.07171,doc,1cm,5614.09,5541.68,-1128.0,0_0
2,5,1.5198,12280,9.8906,6309.57344,doc,1cm,5362.66,5264.45,-1299.16,0_0
2,5,1.4592,12280,12.5936,10000,doc,1cm,5060.71,4922.81,-1515.69,0_0
2,5,1.3885,12280,16.4667,15848.9319,doc,1cm,4721.25,4523.65,-1775.28,0_0
2,5,1.3,12280,21.9627,25118.8643,doc,1cm,4314.59,4036.3,-2040.05,0_0
2,5,1.1846,12280,29.6352,39810.7171,doc,1cm,3812.68,3445.69,-2232.93,0_0
2,5,1.0299,12280,40.0343,63095.7344,doc,1cm,3185.61,2762.33,-2238.01,0_0
2,5,0.8307,12280,53.0059,100000,doc,1cm,2446.69,2055.16,-1968.81,0_0
2,5,0.6028,12280,67.1475,158489.319,doc,1cm,1683.43,1413.5,-1481.46,0_0
2,5,0.4927,12280,73.9063,200000,doc,1cm,1342.35,1141.82,-1217.33,0_0
2,5,1.968,12280,1.0022,20,doc,1cm,7970.66,7968.05,-229.83,0_0
2,5,1.6587,12280,1.4732,25.1188643,doc,1cm,6096.08,6093.09,-234.41,0_0
2,5,1.9494,12280,1.6457,39.8107171,doc,1cm,7847.19,7840.41,-369.06,0_0
2,5,1.9368,12280,2.2442,63.0957344,doc,1cm,7764.4,7752.12,-495.5,0_0
2,5,1.9083,12280,1.9249,100,doc,1cm,7579.62,7571.09,-411.28,0_0
2,5,1.8739,12280,2.7709,158.489319,doc,1cm,7361.09,7344.62,-567.89,0_0
2,5,1.8384,12280,3.3584,251.188643,doc,1cm,7140.55,7118.06,-659.46,0_0
2,5,1.8038,12280,3.8394,398.107171,doc,1cm,6930.31,6902.95,-723.08,0_0
2,5,1.7631,12280,4.3035,630.957344,doc,1cm,6688.77,6657.17,-771.65,0_0
2,5,1.7231,12280,4.7651,1000,doc,1cm,6457.22,6421.59,-813.95,0_0
2,5,1.6851,12280,5.3477,1584.89319,doc,1cm,6242.43,6201.03,-871.72,0_0
2,5,1.644,12280,6.2118,2511.88643,doc,1cm,6015.59,5964.46,-961.53,0_0
2,5,1.6045,12280,7.4238,3981.07171,doc,1cm,5802.76,5735.82,-1091.32,0_0
2,5,1.5558,12280,9.2377,6309.57344,doc,1cm,5547.07,5454.27,-1271.1,0_0
2,5,1.4998,12280,11.8685,10000,doc,1cm,5261.85,5127.61,-1506.47,0_0
2,5,1.4319,12280,15.6185,15848.9319,doc,1cm,4928.04,4731.47,-1785.09,0_0
2,5,1.3455,12280,20.9471,25118.8643,doc,1cm,4521.2,4238.85,-2073.41,0_0
2,5,1.2352,12280,28.438,39810.7171,doc,1cm,4028.97,3645.42,-2305.65,0_0
2,5,1.0838,12280,38.6805,63095.7344,doc,1cm,3398.46,2942.1,-2347.82,0_0
2,5,0.8792,12280,51.6429,100000,doc,1cm,2620.02,2189.49,-2083.53,0_0
2,5,0.6454,12280,65.8824,158489.319,doc,1cm,1820.03,1514.72,-1587.77,0_0
2,5,0.5294,12280,72.7874,200000,doc,1cm,1454.17,1225.26,-1309.34,0_0
2,5,0.2289,12280,40.9035,20,doc,1cm,589.15,574.98,-394.59,1_0
2,5,0.9114,12280,43.7877,25.1188643,doc,1cm,2737.37,2376.72,-2011.49,1_0
2,5,0.7205,12280,48.869,39.8107171,doc,1cm,2067.47,1821.91,-1603.53,1_0
2,5,0.5596,12280,52.865,63.0957344,doc,1cm,1547.58,1390.91,-1248.78,1_0
2,5,0.4208,12280,54.6657,100,doc,1cm,1128.46,1040.26,-926.76,1_0
2,5,0.3133,12280,56.0321,158.489319,doc,1cm,820.9,772.17,-683.32,1_0
2,5,0.2305,12280,55.5301,251.188643,doc,1cm,593.47,568.38,-491.31,1_0
2,5,0.1706,12280,53.3851,398.107171,doc,1cm,433.79,421.3,-350.15,1_0
2,5,0.1283,12280,49.6432,630.957344,doc,1cm,323.4,317.32,-248.2,1_0
2,5,0.0796,12280,44.5809,1000,doc,1cm,198.66,196.78,-140.37,1_0
2,5,0.0796,12280,38.7527,1584.89319,doc,1cm,198.66,197.22,-125.46,1_0
2,5,0.0668,12280,32.9308,2511.88643,doc,1cm,166.28,165.54,-91.22,1_0
2,5,0.0581,12280,27.9665,3981.07171,doc,1cm,144.37,143.97,-68.31,1_0
2,5,0.052,12280,23.9281,6309.57344,doc,1cm,129.05,128.82,-52.8,1_0
2,5,0.0473,12280,21.2528,10000,doc,1cm,117.28,117.12,-42.86,1_0
2,5,0.0433,12280,19.4694,15848.9319,doc,1cm,107.27,107.16,-36.03,1_0
2,5,0.0399,12280,18.5664,25118.8643,doc,1cm,98.78,98.7,-31.68,1_0
2,5,0.0367,12280,18.2469,39810.7171,doc,1cm,90.8,90.73,-28.62,1_0
2,5,0.0337,12280,18.371,63095.7344,doc,1cm,83.33,83.27,-26.42,1_0
2,5,0.0308,12280,18.6271,100000,doc,1cm,76.11,76.06,-24.45,1_0
2,5,0.028,12280,19.1577,158489.319,doc,1cm,69.16,69.11,-22.81,1_0
2,5,0.0267,12280,19.5257,200000,doc,1cm,65.93,65.89,-22.14,1_0
2,5,0.9463,12280,42.9864,20,ngang,1cm,2866.66,2482.52,-2088.0,1_0
2,5,0.8519,12280,45.3217,25.1188643,ngang,1cm,2521.96,2198.52,-1884.57,1_0
2,5,0.6691,12280,50.2276,39.8107171,ngang,1cm,1897.19,1680.91,-1491.74,1_0
2,5,0.5157,12280,52.822,63.0957344,ngang,1cm,1412.22,1281.92,-1139.01,1_0
2,5,0.3856,12280,56.3709,100,ngang,1cm,1026.17,949.3,-856.62,1_0
2,5,0.2575,12280,57.4441,158.489319,ngang,1cm,666.76,633.17,-562.74,1_0
2,5,0.2076,12280,57.1476,251.188643,ngang,1cm,531.95,510.75,-447.72,1_0
2,5,0.1523,12280,55.3683,398.107171,ngang,1cm,385.8,375.25,-318.51,1_0
2,5,0.113,12280,52.0573,630.957344,ngang,1cm,283.95,278.83,-225.0,1_0
2,5,0.0857,12280,47.3901,1000,ngang,1cm,214.15,211.7,-158.54,1_0
2,5,0.0675,12280,41.5771,1584.89319,ngang,1cm,168.05,166.87,-112.26,1_0
2,5,0.0556,12280,35.4855,2511.88643,ngang,1cm,138.09,137.5,-80.72,1_0
2,5,0.0478,12280,29.8631,3981.07171,ngang,1cm,118.53,118.22,-59.44,1_0
2,5,0.0422,12280,25.3136,6309.57344,ngang,1cm,104.53,104.35,-45.0,1_0
2,5,0.0382,12280,21.9294,10000,ngang,1cm,94.54,94.43,-35.54,1_0
2,5,0.0351,12280,19.509,15848.9319,ngang,1cm,86.82,86.74,-29.17,1_0
2,5,0.0323,12280,18.2231,25118.8643,ngang,1cm,79.84,79.79,-25.11,1_0
2,5,0.0297,12280,17.4565,39810.7171,ngang,1cm,73.38,73.34,-22.13,1_0
2,5,0.0274,12280,17.0728,63095.7344,ngang,1cm,67.67,67.63,-19.97,1_0
2,5,0.0253,12280,16.819,100000,ngang,1cm,62.45,62.42,-18.15,1_0
2,5,0.0233,12280,17.1367,158489.319,ngang,1cm,57.49,57.47,-17.01,1_0
2,5,0.0225,12280,17.4126,200000,ngang,1cm,55.51,55.49,-16.68,1_0
2,5,0.5264,12280,45.6638,20,doc,1cm,1444.96,1338.77,-1070.35,2_0
2,5,0.4723,12280,46.4927,25.1188643,doc,1cm,1280.97,1195.05,-957.27,2_0
2,5,0.3783,12280,47.5317,39.8107171,doc,1cm,1005.15,950.37,-758.51,2_0
2,5,0.3013,12280,47.8566,63.0957344,doc,1cm,787.44,753.52,-594.61,2_0
2,5,0.2345,12280,50.712,100,doc,1cm,604.27,582.15,-472.8,2_0
2,5,0.137,12280,52.1031,158.489319,doc,1cm,345.95,338.35,-274.55,2_0
2,5,0.1519,12280,52.0415,251.188643,doc,1cm,384.76,375.37,-305.27,2_0
2,5,0.1014,12280,52.6889,398.107171,doc,1cm,254.19,250.0,-202.98,2_0
2,5,0.0761,12280,51.5239,630.957344,doc,1cm,189.79,187.54,-149.11,2_0
2,5,0.0576,12280,48.9626,1000,doc,1cm,143.11,141.95,-108.33,2_0
2,5,0.0443,12280,45.3217,1584.89319,doc,1cm,109.77,109.18,-78.33,2_0
2,5,0.0353,12280,40.9109,2511.88643,doc,1cm,87.31,87.0,-57.39,2_0
2,5,0.029,12280,36.005,3981.07171,doc,1cm,71.64,71.47,-42.26,2_0
2,5,0.0231,12280,31.3961,6309.57344,doc,1cm,57.0,56.92,-29.79,2_0
2,5,0.02,12280,27.8413,10000,doc,1cm,49.32,49.27,-23.1,2_0
2,5,0.019,12280,24.7614,15848.9319,doc,1cm,46.84,46.81,-19.68,2_0
2,5,0.017,12280,22.4978,25118.8643,doc,1cm,41.89,41.87,-16.08,2_0
2,5,0.0153,12280,20.4724,39810.7171,doc,1cm,37.69,37.68,-13.22,2_0
2,5,0.0139,12280,18.5467,63095.7344,doc,1cm,34.23,34.22,-10.92,2_0
2,5,0.0128,12280,16.8382,100000,doc,1cm,31.52,31.51,-9.15,2_0
2,5,0.0119,12280,15.805,158489.319,doc,1cm,29.3,29.29,-8.0,2_0
2,5,0.0116,12280,15.5664,200000,doc,1cm,28.56,28.55,-7.68,2_0
2,5,0.092,12280,45.2213,20,ngang,1cm,230.19,227.6,-164.6,2_0
2,5,0.3871,12280,45.6084,25.1188643,ngang,1cm,1030.5,976.99,-756.8,2_0
2,5,0.3726,12280,46.2659,39.8107171,ngang,1cm,988.79,938.29,-732.63,2_0
2,5,0.2991,12280,47.5047,63.0957344,ngang,1cm,781.33,748.38,-586.98,2_0
2,5,0.2353,12280,48.667,100,ngang,1cm,606.44,585.75,-461.6,2_0
2,5,0.183,12280,49.9683,158.489319,ngang,1cm,466.52,453.7,-360.63,2_0
2,5,0.14,12280,50.913,251.188643,ngang,1cm,353.74,346.12,-276.43,2_0
2,5,0.1061,12280,51.0954,398.107171,ngang,1cm,266.23,261.88,-208.24,2_0
2,5,0.0803,12280,50.1474,630.957344,ngang,1cm,200.44,198.05,-154.54,2_0
2,5,0.061,12280,47.8917,1000,ngang,1cm,151.67,150.41,-112.98,2_0
2,5,0.0472,12280,44.3648,1584.89319,ngang,1cm,117.03,116.38,-82.16,2_0
2,5,0.0375,12280,40.061,2511.88643,ngang,1cm,92.8,92.46,-59.96,2_0
2,5,0.031,12280,35.162,3981.07171,ngang,1cm,76.61,76.43,-44.29,2_0
2,5,0.0264,12280,30.5323,6309.57344,ngang,1cm,65.18,65.08,-33.24,2_0
2,5,0.0232,12280,26.6755,10000,ngang,1cm,57.24,57.19,-25.79,2_0
2,5,0.0206,12280,23.9877,15848.9319,ngang,1cm,50.8,50.77,-20.72,2_0
2,5,0.0185,12280,22.1277,25118.8643,ngang,1cm,45.6,45.58,-17.23,2_0
2,5,0.0168,12280,20.7222,39810.7171,ngang,1cm,41.4,41.38,-14.69,2_0
2,5,0.0152,12280,19.6059,63095.7344,ngang,1cm,37.45,37.43,-12.6,2_0
2,5,0.0139,12280,18.4383,100000,ngang,1cm,34.23,34.22,-10.85,2_0
2,5,0.0127,12280,17.7023,158489.319,ngang,1cm,31.27,31.26,-9.53,2_0
2,5,0.0123,12280,17.3231,200000,ngang,1cm,30.28,30.28,-9.04,2_0
3,5,0.0059,12280,1.1694,20,doc,1cm,14.51,14.51,-0.3,0_0
3,5,1.9525,12280,1.2977,25.1188643,doc,1cm,7867.66,7863.42,-292.18,0_0
3,5,1.9394,12280,1.6877,39.8107171,doc,1cm,7781.43,7774.44,-374.06,0_0
3,5,1.3115,12280,0.843,63.0957344,doc,1cm,4366.33,4365.88,-87.07,0_0
3,5,1.8974,12280,2.2934,100,doc,1cm,7509.85,7498.01,-483.54,0_0
3,5,1.8735,12280,2.5371,158.489319,doc,1cm,7358.57,7344.77,-519.95,0_0
3,5,1.8393,12280,2.8877,251.188643,doc,1cm,7146.08,7129.4,-568.18,0_0
3,5,1.8125,12280,3.2357,398.107171,doc,1cm,6982.75,6962.94,-616.49,0_0
3,5,1.7834,12280,3.6808,630.957344,doc,1cm,6808.48,6784.35,-677.02,0_0
3,5,1.7491,12280,4.256,1000,doc,1cm,6607.08,6577.05,-750.72,0_0
3,5,1.7165,12280,5.0398,1584.89319,doc,1cm,6419.56,6380.28,-853.5,0_0
3,5,1.6842,12280,6.1764,2511.88643,doc,1cm,6237.4,6182.41,-1003.03,0_0
3,5,1.6402,12280,7.8036,3981.07171,doc,1cm,5994.9,5915.28,-1195.26,0_0
3,5,1.5863,12280,10.085,6309.57344,doc,1cm,5706.35,5588.76,-1433.41,0_0
3,5,1.5207,12280,13.2894,10000,doc,1cm,5367.23,5192.49,-1715.3,0_0
3,5,1.4382,12280,17.7728,15848.9319,doc,1cm,4958.47,4703.87,-2015.63,0_0
3,5,1.3335,12280,23.8703,25118.8643,doc,1cm,4466.22,4116.76,-2271.89,0_0
3,5,1.2003,12280,32.1669,39810.7171,doc,1cm,3879.17,3439.94,-2410.06,0_0
3,5,1.0269,12280,43.1526,63095.7344,doc,1cm,3173.93,2698.75,-2323.11,0_0
3,5,0.8103,12280,56.6144,100000,doc,1cm,2374.99,1966.35,-1959.76,0_0
3,5,0.5726,12280,71.0845,158489.319,doc,1cm,1588.18,1325.99,-1416.99,0_0
3,5,0.4614,12280,77.9364,200000,doc,1cm,1248.4,1060.17,-1142.51,0_0
3,5,0.148,12280,0.5115,20,ngang,1cm,374.58,374.57,-3.45,0_0
3,5,1.9633,12280,1.0507,25.1188643,ngang,1cm,7939.32,7936.48,-239.62,0_0
3,5,1.9577,12280,1.3999,39.8107171,ngang,1cm,7902.1,7897.11,-317.08,0_0
3,5,1.9461,12280,1.8646,63.0957344,ngang,1cm,7825.44,7816.8,-416.42,0_0
3,5,1.9171,12280,1.8941,100,ngang,1cm,7636.31,7627.9,-408.9,0_0
